
**** 01/11/18 21:49:16 ********* PSpice 9.2 (Mar 2000) ******** ID# 1 ********

 ** Profile: "SCHEMATIC1-THIS"  [ d:\dc_rl-schematic1-this.sim ] 


 ****     CIRCUIT DESCRIPTION


******************************************************************************




** Creating circuit file "dc_rl-schematic1-this.sim.cir" 
** WARNING: THIS AUTOMATICALLY GENERATED FILE MAY BE OVERWRITTEN BY SUBSEQUENT SIMULATIONS

*Libraries: 
* Local Libraries :
* From [PSPICE NETLIST] section of C:\Program Files\Orcad\PSpice\PSpice.ini file:
.lib "nom.lib" 

*Analysis directives: 
.TRAN  0 1000ns 0 
.PROBE V(*) I(*) W(*) D(*) NOISE(*) 
.INC ".\dc_rl-SCHEMATIC1.net" 



**** INCLUDING dc_rl-SCHEMATIC1.net ****
* source DC_RL
I_I1         0 N00564 DC 4m  
V_V1         N000250 N00600 12
R_R1         0 N00564  2.2k  
R_R2         N000250 0  8.2k  
L_L1         N00564 N00600  200m  

**** RESUMING dc_rl-schematic1-this.sim.cir ****
.END

**** 01/11/18 21:49:16 ********* PSpice 9.2 (Mar 2000) ******** ID# 1 ********

 ** Profile: "SCHEMATIC1-THIS"  [ d:\dc_rl-schematic1-this.sim ] 


 ****     INITIAL TRANSIENT SOLUTION       TEMPERATURE =   27.000 DEG C


******************************************************************************



 NODE   VOLTAGE     NODE   VOLTAGE     NODE   VOLTAGE     NODE   VOLTAGE


(N00564)    4.4000 (N00600)    4.4000 (N000250)   16.4000                   




    VOLTAGE SOURCE CURRENTS
    NAME         CURRENT

    V_V1        -2.000E-03

    TOTAL POWER DISSIPATION   2.40E-02  WATTS



          JOB CONCLUDED

          TOTAL JOB TIME             .02
