
**** 01/11/18 21:38:26 ********* PSpice 9.2 (Mar 2000) ******** ID# 1 ********

 ** Profile: "SCHEMATIC1-new"  [ D:\DC_RESISTOR\new-SCHEMATIC1-new.sim ] 


 ****     CIRCUIT DESCRIPTION


******************************************************************************




** Creating circuit file "new-SCHEMATIC1-new.sim.cir" 
** WARNING: THIS AUTOMATICALLY GENERATED FILE MAY BE OVERWRITTEN BY SUBSEQUENT SIMULATIONS

*Libraries: 
* Local Libraries :
* From [PSPICE NETLIST] section of C:\Program Files\Orcad\PSpice\PSpice.ini file:
.lib "nom.lib" 

*Analysis directives: 
.PROBE V(*) I(*) W(*) D(*) NOISE(*) 
.INC ".\new-SCHEMATIC1.net" 



**** INCLUDING new-SCHEMATIC1.net ****
* source NEW
R_R10         N02824 N02071  1.2k  
R_R11         0 N02870  2.2k  
R_R12         N02071 N02870  3.3k  
V_V2         N02824 0 8
I_I2         0 N02870 DC 5m  
R_R9         0 N02071  4.7k  

**** RESUMING new-SCHEMATIC1-new.sim.cir ****
.END

**** 01/11/18 21:38:26 ********* PSpice 9.2 (Mar 2000) ******** ID# 1 ********

 ** Profile: "SCHEMATIC1-new"  [ D:\DC_RESISTOR\new-SCHEMATIC1-new.sim ] 


 ****     SMALL SIGNAL BIAS SOLUTION       TEMPERATURE =   27.000 DEG C


******************************************************************************



 NODE   VOLTAGE     NODE   VOLTAGE     NODE   VOLTAGE     NODE   VOLTAGE


(N02071)    7.0580 (N02824)    8.0000 (N02870)    9.4232 




    VOLTAGE SOURCE CURRENTS
    NAME         CURRENT

    V_V2        -7.850E-04

    TOTAL POWER DISSIPATION   6.28E-03  WATTS



          JOB CONCLUDED

          TOTAL JOB TIME             .02
